 (000.000000)  vcan0  100   [8]  C8 00 00 00 00 00 00 00
 (000.100532)  vcan0  100   [8]  90 01 00 00 00 00 00 00
 (000.200265)  vcan0  100   [8]  58 02 00 00 00 00 00 00
 (000.300407)  vcan0  100   [8]  20 03 00 00 00 00 00 00
 (000.400308)  vcan0  100   [8]  E8 03 00 00 00 00 00 00
 (000.500344)  vcan0  100   [8]  B0 04 00 00 00 00 00 00
 (000.600285)  vcan0  100   [8]  78 05 00 00 00 00 00 00
 (000.700294)  vcan0  100   [8]  40 06 00 00 00 00 00 00
 (000.800634)  vcan0  100   [8]  08 07 00 00 00 00 00 00
 (000.900431)  vcan0  100   [8]  D0 07 00 00 00 00 00 00
 (001.000421)  vcan0  100   [8]  98 08 00 00 00 00 00 00
 (001.100584)  vcan0  100   [8]  60 09 00 00 00 00 00 00
 (001.200242)  vcan0  100   [8]  28 0A 00 00 00 00 00 00
 (001.300266)  vcan0  100   [8]  F0 0A 00 00 00 00 00 00
 (001.400259)  vcan0  100   [8]  B8 0B 00 00 00 00 00 00
 (001.500424)  vcan0  100   [8]  80 0C 00 00 00 00 00 00
 (001.600464)  vcan0  100   [8]  48 0D 00 00 00 00 00 00
 (001.700306)  vcan0  100   [8]  10 0E 00 00 00 00 00 00
 (001.800549)  vcan0  100   [8]  D8 0E 00 00 00 00 00 00
 (001.900231)  vcan0  100   [8]  A0 0F 00 00 00 00 00 00
 (002.000635)  vcan0  100   [8]  68 10 00 00 00 00 00 00
 (002.100428)  vcan0  100   [8]  30 11 00 00 00 00 00 00
 (002.200430)  vcan0  100   [8]  F8 11 00 00 00 00 00 00
 (002.300295)  vcan0  100   [8]  C0 12 00 00 00 00 00 00
 (002.400291)  vcan0  100   [8]  88 13 00 00 00 00 00 00
 (002.500550)  vcan0  100   [8]  50 14 00 00 00 00 00 00
 (002.600300)  vcan0  100   [8]  18 15 00 00 00 00 00 00
 (002.700470)  vcan0  100   [8]  E0 15 00 00 00 00 00 00
 (002.800482)  vcan0  100   [8]  A8 16 00 00 00 00 00 00
 (002.900260)  vcan0  100   [8]  70 17 00 00 00 00 00 00
 (003.000317)  vcan0  100   [8]  70 17 00 00 00 00 00 00
 (003.100216)  vcan0  100   [8]  70 17 00 00 00 00 00 00
 (003.200349)  vcan0  100   [8]  70 17 00 00 00 00 00 00
 (003.300317)  vcan0  100   [8]  70 17 00 00 00 00 00 00
 (003.400160)  vcan0  100   [8]  70 17 00 00 00 00 00 00
 (003.500252)  vcan0  100   [8]  70 17 00 00 00 00 00 00
 (003.600262)  vcan0  100   [8]  70 17 00 00 00 00 00 00
 (003.700333)  vcan0  100   [8]  70 17 00 00 00 00 00 00
 (003.800275)  vcan0  100   [8]  70 17 00 00 00 00 00 00
 (003.900448)  vcan0  100   [8]  70 17 00 00 00 00 00 00
 (004.000342)  vcan0  100   [8]  70 17 00 00 00 00 00 00
 (004.100621)  vcan0  100   [8]  70 17 00 00 00 00 00 00
 (004.200231)  vcan0  100   [8]  70 17 00 00 00 00 00 00
 (004.300511)  vcan0  100   [8]  70 17 00 00 00 00 00 00
 (004.400176)  vcan0  100   [8]  70 17 00 00 00 00 00 00
 (004.500170)  vcan0  100   [8]  70 17 00 00 00 00 00 00
 (004.600227)  vcan0  100   [8]  70 17 00 00 00 00 00 00
 (004.700219)  vcan0  100   [8]  70 17 00 00 00 00 00 00
 (004.800278)  vcan0  100   [8]  70 17 00 00 00 00 00 00
 (004.900225)  vcan0  100   [8]  70 17 00 00 00 00 00 00
 (005.000285)  vcan0  100   [8]  70 17 00 00 00 00 00 00
 (005.100350)  vcan0  100   [8]  70 17 00 00 00 00 00 00
 (005.200428)  vcan0  100   [8]  70 17 00 00 00 00 00 00
 (005.300580)  vcan0  100   [8]  70 17 00 00 00 00 00 00
 (005.400311)  vcan0  100   [8]  70 17 00 00 00 00 00 00
 (005.500350)  vcan0  100   [8]  70 17 00 00 00 00 00 00
 (005.600240)  vcan0  100   [8]  70 17 00 00 00 00 00 00
 (005.700536)  vcan0  100   [8]  70 17 00 00 00 00 00 00
 (005.800231)  vcan0  100   [8]  70 17 00 00 00 00 00 00
 (005.900193)  vcan0  100   [8]  70 17 00 00 00 00 00 00
 (006.000237)  vcan0  100   [8]  A8 16 00 00 00 00 00 00
 (006.100213)  vcan0  100   [8]  E0 15 00 00 00 00 00 00
 (006.200227)  vcan0  100   [8]  18 15 00 00 00 00 00 00
 (006.300239)  vcan0  100   [8]  50 14 00 00 00 00 00 00
 (006.404478)  vcan0  100   [8]  88 13 00 00 00 00 00 00
 (006.500287)  vcan0  100   [8]  C0 12 00 00 00 00 00 00
 (006.600184)  vcan0  100   [8]  F8 11 00 00 00 00 00 00
 (006.700175)  vcan0  100   [8]  30 11 00 00 00 00 00 00
 (006.800170)  vcan0  100   [8]  68 10 00 00 00 00 00 00
 (006.900185)  vcan0  100   [8]  A0 0F 00 00 00 00 00 00
 (007.000179)  vcan0  100   [8]  D8 0E 00 00 00 00 00 00
 (007.100187)  vcan0  100   [8]  10 0E 00 00 00 00 00 00
 (007.200187)  vcan0  100   [8]  48 0D 00 00 00 00 00 00
 (007.300208)  vcan0  100   [8]  80 0C 00 00 00 00 00 00
 (007.400296)  vcan0  100   [8]  B8 0B 00 00 00 00 00 00
 (007.500239)  vcan0  100   [8]  F0 0A 00 00 00 00 00 00
 (007.600188)  vcan0  100   [8]  28 0A 00 00 00 00 00 00
 (007.700428)  vcan0  100   [8]  60 09 00 00 00 00 00 00
 (007.800214)  vcan0  100   [8]  98 08 00 00 00 00 00 00
 (007.900254)  vcan0  100   [8]  D0 07 00 00 00 00 00 00
 (008.000213)  vcan0  100   [8]  08 07 00 00 00 00 00 00
 (008.100242)  vcan0  100   [8]  40 06 00 00 00 00 00 00
 (008.200195)  vcan0  100   [8]  78 05 00 00 00 00 00 00
 (008.300208)  vcan0  100   [8]  B0 04 00 00 00 00 00 00
 (008.400251)  vcan0  100   [8]  E8 03 00 00 00 00 00 00
 (008.500202)  vcan0  100   [8]  20 03 00 00 00 00 00 00
 (008.600216)  vcan0  100   [8]  58 02 00 00 00 00 00 00
 (008.700722)  vcan0  100   [8]  90 01 00 00 00 00 00 00
 (008.800159)  vcan0  100   [8]  C8 00 00 00 00 00 00 00
 (008.900231)  vcan0  100   [8]  00 00 00 00 00 00 00 00
 (009.000417)  vcan0  100   [8]  00 00 00 00 00 00 00 00
 (009.100237)  vcan0  100   [8]  00 00 00 00 00 00 00 00
 (009.200820)  vcan0  100   [8]  00 00 00 00 00 00 00 00
 (009.300260)  vcan0  100   [8]  00 00 00 00 00 00 00 00
 (009.400255)  vcan0  100   [8]  00 00 00 00 00 00 00 00
 (009.500235)  vcan0  100   [8]  00 00 00 00 00 00 00 00
 (009.600297)  vcan0  100   [8]  00 00 00 00 00 00 00 00
 (009.700328)  vcan0  100   [8]  00 00 00 00 00 00 00 00
 (009.800200)  vcan0  100   [8]  00 00 00 00 00 00 00 00
 (009.900239)  vcan0  100   [8]  00 00 00 00 00 00 00 00
 (010.000217)  vcan0  100   [8]  00 00 00 00 00 00 00 00
 (010.100296)  vcan0  100   [8]  00 00 00 00 00 00 00 00
 (010.200224)  vcan0  100   [8]  00 00 00 00 00 00 00 00
 (010.300256)  vcan0  100   [8]  00 00 00 00 00 00 00 00
 (010.400258)  vcan0  100   [8]  00 00 00 00 00 00 00 00
 (010.500245)  vcan0  100   [8]  00 00 00 00 00 00 00 00
 (010.600391)  vcan0  100   [8]  00 00 00 00 00 00 00 00
 (010.700213)  vcan0  100   [8]  00 00 00 00 00 00 00 00
 (010.800218)  vcan0  100   [8]  00 00 00 00 00 00 00 00
 (010.900239)  vcan0  100   [8]  00 00 00 00 00 00 00 00
 (011.000242)  vcan0  100   [8]  00 00 00 00 00 00 00 00
 (011.100291)  vcan0  100   [8]  00 00 00 00 00 00 00 00
 (011.200240)  vcan0  100   [8]  00 00 00 00 00 00 00 00
 (011.300278)  vcan0  100   [8]  00 00 00 00 00 00 00 00
 (011.400225)  vcan0  100   [8]  00 00 00 00 00 00 00 00
 (011.500482)  vcan0  100   [8]  00 00 00 00 00 00 00 00
 (011.600211)  vcan0  100   [8]  00 00 00 00 00 00 00 00
 (011.700467)  vcan0  100   [8]  00 00 00 00 00 00 00 00
 (011.800592)  vcan0  100   [8]  00 00 00 00 00 00 00 00
 (011.900269)  vcan0  100   [8]  00 00 00 00 00 00 00 00
 (012.000315)  vcan0  100   [8]  C8 00 00 00 00 00 00 00
 (012.100215)  vcan0  100   [8]  90 01 00 00 00 00 00 00
 (012.200294)  vcan0  100   [8]  58 02 00 00 00 00 00 00
 (012.300228)  vcan0  100   [8]  20 03 00 00 00 00 00 00
 (012.400240)  vcan0  100   [8]  E8 03 00 00 00 00 00 00
 (012.500239)  vcan0  100   [8]  B0 04 00 00 00 00 00 00
 (012.600180)  vcan0  100   [8]  78 05 00 00 00 00 00 00
 (012.700405)  vcan0  100   [8]  40 06 00 00 00 00 00 00
 (012.800226)  vcan0  100   [8]  08 07 00 00 00 00 00 00
 (012.900315)  vcan0  100   [8]  D0 07 00 00 00 00 00 00
 (013.000353)  vcan0  100   [8]  98 08 00 00 00 00 00 00
 (013.100348)  vcan0  100   [8]  60 09 00 00 00 00 00 00
 (013.200780)  vcan0  100   [8]  28 0A 00 00 00 00 00 00
 (013.300539)  vcan0  100   [8]  F0 0A 00 00 00 00 00 00
 (013.400326)  vcan0  100   [8]  B8 0B 00 00 00 00 00 00
 (013.500284)  vcan0  100   [8]  80 0C 00 00 00 00 00 00
 (013.600303)  vcan0  100   [8]  48 0D 00 00 00 00 00 00
 (013.700813)  vcan0  100   [8]  10 0E 00 00 00 00 00 00
 (013.800464)  vcan0  100   [8]  D8 0E 00 00 00 00 00 00
 (013.900479)  vcan0  100   [8]  A0 0F 00 00 00 00 00 00
 (014.000234)  vcan0  100   [8]  68 10 00 00 00 00 00 00
 (014.100240)  vcan0  100   [8]  30 11 00 00 00 00 00 00
 (014.200254)  vcan0  100   [8]  F8 11 00 00 00 00 00 00
 (014.300211)  vcan0  100   [8]  C0 12 00 00 00 00 00 00
 (014.400686)  vcan0  100   [8]  88 13 00 00 00 00 00 00
 (014.500482)  vcan0  100   [8]  50 14 00 00 00 00 00 00
 (014.600248)  vcan0  100   [8]  18 15 00 00 00 00 00 00
 (014.700487)  vcan0  100   [8]  E0 15 00 00 00 00 00 00
 (014.800217)  vcan0  100   [8]  A8 16 00 00 00 00 00 00
 (014.900239)  vcan0  100   [8]  70 17 00 00 00 00 00 00
 (015.000298)  vcan0  100   [8]  70 17 00 00 00 00 00 00
 (015.100345)  vcan0  100   [8]  70 17 00 00 00 00 00 00
 (015.200292)  vcan0  100   [8]  70 17 00 00 00 00 00 00
 (015.300228)  vcan0  100   [8]  70 17 00 00 00 00 00 00
 (015.400244)  vcan0  100   [8]  70 17 00 00 00 00 00 00
 (015.500421)  vcan0  100   [8]  70 17 00 00 00 00 00 00
 (015.600602)  vcan0  100   [8]  70 17 00 00 00 00 00 00
 (015.700692)  vcan0  100   [8]  70 17 00 00 00 00 00 00
 (015.800207)  vcan0  100   [8]  70 17 00 00 00 00 00 00
 (015.900767)  vcan0  100   [8]  70 17 00 00 00 00 00 00
 (016.000285)  vcan0  100   [8]  70 17 00 00 00 00 00 00
 (016.100299)  vcan0  100   [8]  70 17 00 00 00 00 00 00
 (016.200515)  vcan0  100   [8]  70 17 00 00 00 00 00 00
 (016.300242)  vcan0  100   [8]  70 17 00 00 00 00 00 00
 (016.400643)  vcan0  100   [8]  70 17 00 00 00 00 00 00
 (016.500324)  vcan0  100   [8]  70 17 00 00 00 00 00 00
 (016.600309)  vcan0  100   [8]  70 17 00 00 00 00 00 00
 (016.700488)  vcan0  100   [8]  70 17 00 00 00 00 00 00
 (016.800230)  vcan0  100   [8]  70 17 00 00 00 00 00 00
 (016.900563)  vcan0  100   [8]  70 17 00 00 00 00 00 00
 (017.000218)  vcan0  100   [8]  70 17 00 00 00 00 00 00
 (017.100238)  vcan0  100   [8]  70 17 00 00 00 00 00 00
 (017.200212)  vcan0  100   [8]  70 17 00 00 00 00 00 00
 (017.300341)  vcan0  100   [8]  70 17 00 00 00 00 00 00
 (017.400347)  vcan0  100   [8]  70 17 00 00 00 00 00 00
 (017.500269)  vcan0  100   [8]  70 17 00 00 00 00 00 00
 (017.600240)  vcan0  100   [8]  70 17 00 00 00 00 00 00
 (017.700425)  vcan0  100   [8]  70 17 00 00 00 00 00 00
 (017.800200)  vcan0  100   [8]  70 17 00 00 00 00 00 00
 (017.900180)  vcan0  100   [8]  70 17 00 00 00 00 00 00
 (018.000251)  vcan0  100   [8]  A8 16 00 00 00 00 00 00
 (018.100324)  vcan0  100   [8]  E0 15 00 00 00 00 00 00
 (018.200386)  vcan0  100   [8]  18 15 00 00 00 00 00 00
 (018.300388)  vcan0  100   [8]  50 14 00 00 00 00 00 00
 (018.400789)  vcan0  100   [8]  88 13 00 00 00 00 00 00
 (018.500358)  vcan0  100   [8]  C0 12 00 00 00 00 00 00
 (018.600283)  vcan0  100   [8]  F8 11 00 00 00 00 00 00
 (018.700352)  vcan0  100   [8]  30 11 00 00 00 00 00 00
 (018.800751)  vcan0  100   [8]  68 10 00 00 00 00 00 00
 (018.900416)  vcan0  100   [8]  A0 0F 00 00 00 00 00 00
 (019.000327)  vcan0  100   [8]  D8 0E 00 00 00 00 00 00
 (019.100260)  vcan0  100   [8]  10 0E 00 00 00 00 00 00
 (019.200235)  vcan0  100   [8]  48 0D 00 00 00 00 00 00
 (019.300470)  vcan0  100   [8]  80 0C 00 00 00 00 00 00
 (019.400280)  vcan0  100   [8]  B8 0B 00 00 00 00 00 00
 (019.500219)  vcan0  100   [8]  F0 0A 00 00 00 00 00 00
 (019.600326)  vcan0  100   [8]  28 0A 00 00 00 00 00 00
 (019.700173)  vcan0  100   [8]  60 09 00 00 00 00 00 00
 (019.800219)  vcan0  100   [8]  98 08 00 00 00 00 00 00
 (019.900217)  vcan0  100   [8]  D0 07 00 00 00 00 00 00
 (020.000201)  vcan0  100   [8]  08 07 00 00 00 00 00 00
 (020.100353)  vcan0  100   [8]  40 06 00 00 00 00 00 00
 (020.200215)  vcan0  100   [8]  78 05 00 00 00 00 00 00
 (020.300236)  vcan0  100   [8]  B0 04 00 00 00 00 00 00
 (020.400225)  vcan0  100   [8]  E8 03 00 00 00 00 00 00
 (020.500212)  vcan0  100   [8]  20 03 00 00 00 00 00 00
 (020.600378)  vcan0  100   [8]  58 02 00 00 00 00 00 00
 (020.700298)  vcan0  100   [8]  90 01 00 00 00 00 00 00
 (020.800295)  vcan0  100   [8]  C8 00 00 00 00 00 00 00
 (020.900577)  vcan0  100   [8]  00 00 00 00 00 00 00 00
 (021.000491)  vcan0  100   [8]  00 00 00 00 00 00 00 00
 (021.100291)  vcan0  100   [8]  00 00 00 00 00 00 00 00
 (021.200229)  vcan0  100   [8]  00 00 00 00 00 00 00 00
 (021.300176)  vcan0  100   [8]  00 00 00 00 00 00 00 00
 (021.400178)  vcan0  100   [8]  00 00 00 00 00 00 00 00
 (021.500506)  vcan0  100   [8]  00 00 00 00 00 00 00 00
 (021.600266)  vcan0  100   [8]  00 00 00 00 00 00 00 00
 (021.700258)  vcan0  100   [8]  00 00 00 00 00 00 00 00
 (021.800544)  vcan0  100   [8]  00 00 00 00 00 00 00 00
 (021.900360)  vcan0  100   [8]  00 00 00 00 00 00 00 00
 (022.000406)  vcan0  100   [8]  00 00 00 00 00 00 00 00
 (022.100276)  vcan0  100   [8]  00 00 00 00 00 00 00 00
 (022.200180)  vcan0  100   [8]  00 00 00 00 00 00 00 00
 (022.300473)  vcan0  100   [8]  00 00 00 00 00 00 00 00
 (022.400500)  vcan0  100   [8]  00 00 00 00 00 00 00 00
 (022.500375)  vcan0  100   [8]  00 00 00 00 00 00 00 00
 (022.600515)  vcan0  100   [8]  00 00 00 00 00 00 00 00
 (022.700292)  vcan0  100   [8]  00 00 00 00 00 00 00 00
 (022.800284)  vcan0  100   [8]  00 00 00 00 00 00 00 00
 (022.900461)  vcan0  100   [8]  00 00 00 00 00 00 00 00
 (023.000487)  vcan0  100   [8]  00 00 00 00 00 00 00 00
 (023.100376)  vcan0  100   [8]  00 00 00 00 00 00 00 00
 (023.200211)  vcan0  100   [8]  00 00 00 00 00 00 00 00
 (023.300217)  vcan0  100   [8]  00 00 00 00 00 00 00 00
 (023.400512)  vcan0  100   [8]  00 00 00 00 00 00 00 00
 (023.500370)  vcan0  100   [8]  00 00 00 00 00 00 00 00
 (023.600368)  vcan0  100   [8]  00 00 00 00 00 00 00 00
 (023.700238)  vcan0  100   [8]  00 00 00 00 00 00 00 00
 (023.800191)  vcan0  100   [8]  00 00 00 00 00 00 00 00
 (023.900292)  vcan0  100   [8]  00 00 00 00 00 00 00 00
 (024.000630)  vcan0  100   [8]  C8 00 00 00 00 00 00 00
 (024.100622)  vcan0  100   [8]  90 01 00 00 00 00 00 00
 (024.200445)  vcan0  100   [8]  58 02 00 00 00 00 00 00
 (024.300270)  vcan0  100   [8]  20 03 00 00 00 00 00 00
 (024.400182)  vcan0  100   [8]  E8 03 00 00 00 00 00 00
 (024.500304)  vcan0  100   [8]  B0 04 00 00 00 00 00 00
 (024.600391)  vcan0  100   [8]  78 05 00 00 00 00 00 00
 (024.700656)  vcan0  100   [8]  40 06 00 00 00 00 00 00
 (024.800301)  vcan0  100   [8]  08 07 00 00 00 00 00 00
 (024.900465)  vcan0  100   [8]  D0 07 00 00 00 00 00 00
 (025.000302)  vcan0  100   [8]  98 08 00 00 00 00 00 00
 (025.100557)  vcan0  100   [8]  60 09 00 00 00 00 00 00
 (025.200349)  vcan0  100   [8]  28 0A 00 00 00 00 00 00
 (025.300311)  vcan0  100   [8]  F0 0A 00 00 00 00 00 00
 (025.400464)  vcan0  100   [8]  B8 0B 00 00 00 00 00 00
 (025.500382)  vcan0  100   [8]  80 0C 00 00 00 00 00 00
 (025.600218)  vcan0  100   [8]  48 0D 00 00 00 00 00 00
 (025.700187)  vcan0  100   [8]  10 0E 00 00 00 00 00 00
 (025.800370)  vcan0  100   [8]  D8 0E 00 00 00 00 00 00
 (025.900261)  vcan0  100   [8]  A0 0F 00 00 00 00 00 00
 (026.000294)  vcan0  100   [8]  68 10 00 00 00 00 00 00
 (026.100404)  vcan0  100   [8]  30 11 00 00 00 00 00 00
 (026.200281)  vcan0  100   [8]  F8 11 00 00 00 00 00 00
 (026.300236)  vcan0  100   [8]  C0 12 00 00 00 00 00 00
 (026.400503)  vcan0  100   [8]  88 13 00 00 00 00 00 00
 (026.500183)  vcan0  100   [8]  50 14 00 00 00 00 00 00
 (026.600561)  vcan0  100   [8]  18 15 00 00 00 00 00 00
 (026.700497)  vcan0  100   [8]  E0 15 00 00 00 00 00 00
 (026.800225)  vcan0  100   [8]  A8 16 00 00 00 00 00 00
 (026.900348)  vcan0  100   [8]  70 17 00 00 00 00 00 00
 (027.000286)  vcan0  100   [8]  70 17 00 00 00 00 00 00
 (027.100300)  vcan0  100   [8]  70 17 00 00 00 00 00 00
 (027.200305)  vcan0  100   [8]  70 17 00 00 00 00 00 00
 (027.300557)  vcan0  100   [8]  70 17 00 00 00 00 00 00
 (027.400398)  vcan0  100   [8]  70 17 00 00 00 00 00 00
 (027.500701)  vcan0  100   [8]  70 17 00 00 00 00 00 00
 (027.600503)  vcan0  100   [8]  70 17 00 00 00 00 00 00
 (027.700248)  vcan0  100   [8]  70 17 00 00 00 00 00 00
 (027.800509)  vcan0  100   [8]  70 17 00 00 00 00 00 00
 (027.900220)  vcan0  100   [8]  70 17 00 00 00 00 00 00
 (028.000216)  vcan0  100   [8]  70 17 00 00 00 00 00 00
 (028.100469)  vcan0  100   [8]  70 17 00 00 00 00 00 00
 (028.200235)  vcan0  100   [8]  70 17 00 00 00 00 00 00
 (028.300267)  vcan0  100   [8]  70 17 00 00 00 00 00 00
 (028.400392)  vcan0  100   [8]  70 17 00 00 00 00 00 00
 (028.500582)  vcan0  100   [8]  70 17 00 00 00 00 00 00
 (028.600294)  vcan0  100   [8]  70 17 00 00 00 00 00 00
 (028.700339)  vcan0  100   [8]  70 17 00 00 00 00 00 00
 (028.800264)  vcan0  100   [8]  70 17 00 00 00 00 00 00
 (028.900475)  vcan0  100   [8]  70 17 00 00 00 00 00 00
 (029.000468)  vcan0  100   [8]  70 17 00 00 00 00 00 00
 (029.100310)  vcan0  100   [8]  70 17 00 00 00 00 00 00
 (029.200236)  vcan0  100   [8]  70 17 00 00 00 00 00 00
 (029.300266)  vcan0  100   [8]  70 17 00 00 00 00 00 00
 (029.400536)  vcan0  100   [8]  70 17 00 00 00 00 00 00
 (029.500461)  vcan0  100   [8]  70 17 00 00 00 00 00 00
 (029.600390)  vcan0  100   [8]  70 17 00 00 00 00 00 00
 (029.700761)  vcan0  100   [8]  70 17 00 00 00 00 00 00
 (029.800261)  vcan0  100   [8]  70 17 00 00 00 00 00 00
 (029.900469)  vcan0  100   [8]  70 17 00 00 00 00 00 00
 (030.000236)  vcan0  100   [8]  A8 16 00 00 00 00 00 00
 (030.100209)  vcan0  100   [8]  E0 15 00 00 00 00 00 00
 (030.200236)  vcan0  100   [8]  18 15 00 00 00 00 00 00
 (030.300272)  vcan0  100   [8]  50 14 00 00 00 00 00 00
 (030.400533)  vcan0  100   [8]  88 13 00 00 00 00 00 00
 (030.500451)  vcan0  100   [8]  C0 12 00 00 00 00 00 00
 (030.600280)  vcan0  100   [8]  F8 11 00 00 00 00 00 00
 (030.700312)  vcan0  100   [8]  30 11 00 00 00 00 00 00
 (030.800337)  vcan0  100   [8]  68 10 00 00 00 00 00 00
 (030.900252)  vcan0  100   [8]  A0 0F 00 00 00 00 00 00
 (031.000299)  vcan0  100   [8]  D8 0E 00 00 00 00 00 00
 (031.100371)  vcan0  100   [8]  10 0E 00 00 00 00 00 00
 (031.200286)  vcan0  100   [8]  48 0D 00 00 00 00 00 00
 (031.300252)  vcan0  100   [8]  80 0C 00 00 00 00 00 00
 (031.400277)  vcan0  100   [8]  B8 0B 00 00 00 00 00 00
 (031.500256)  vcan0  100   [8]  F0 0A 00 00 00 00 00 00
 (031.600350)  vcan0  100   [8]  28 0A 00 00 00 00 00 00
 (031.700262)  vcan0  100   [8]  60 09 00 00 00 00 00 00
 (031.800292)  vcan0  100   [8]  98 08 00 00 00 00 00 00
 (031.900320)  vcan0  100   [8]  D0 07 00 00 00 00 00 00
 (032.000356)  vcan0  100   [8]  08 07 00 00 00 00 00 00
 (032.100298)  vcan0  100   [8]  40 06 00 00 00 00 00 00
 (032.200465)  vcan0  100   [8]  78 05 00 00 00 00 00 00
 (032.300633)  vcan0  100   [8]  B0 04 00 00 00 00 00 00
 (032.400348)  vcan0  100   [8]  E8 03 00 00 00 00 00 00
 (032.500294)  vcan0  100   [8]  20 03 00 00 00 00 00 00
 (032.600443)  vcan0  100   [8]  58 02 00 00 00 00 00 00
 (032.700375)  vcan0  100   [8]  90 01 00 00 00 00 00 00
 (032.800464)  vcan0  100   [8]  C8 00 00 00 00 00 00 00
 (032.900286)  vcan0  100   [8]  00 00 00 00 00 00 00 00
 (033.000264)  vcan0  100   [8]  00 00 00 00 00 00 00 00
 (033.100889)  vcan0  100   [8]  00 00 00 00 00 00 00 00
 (033.200601)  vcan0  100   [8]  00 00 00 00 00 00 00 00
 (033.300298)  vcan0  100   [8]  00 00 00 00 00 00 00 00
 (033.400475)  vcan0  100   [8]  00 00 00 00 00 00 00 00
